
T2A84 000:110 SEGGER J-Link V6.14 Log File (0001ms, 0050ms total)
T2A84 000:110 DLL Compiled: Feb 23 2017 17:29:32 (0001ms, 0050ms total)
T2A84 000:110 Logging started @ 2017-09-10 01:13 (0001ms, 0050ms total)
T2A84 000:111 JLINK_SetWarnOutHandler(...) (0001ms, 0051ms total)
T2A84 000:112 JLINK_OpenEx(...)
Firmware: J-Link LPC-Link 2 compiled May 30 2016 16:15:37
Hardware: V1.00
S/N: 611000000WEBSRV Webserver running on local port 19080 (0017ms, 0068ms total)
T2A84 000:112   returns O.K. (0017ms, 0068ms total)
T2A84 000:129 JLINK_SetErrorOutHandler(...) (0000ms, 0068ms total)
T2A84 000:129 JLINK_ExecCommand("ProjectFile = "C:\NXP Working File\NXP\lpc_sample\LPC54110\4. Software\smartbalance\proj_keil\4.qn9020_uart_ble\JLinkSettings.ini"", ...). C:\Program Files (x86)\SEGGER\JLink_V616d\JLinkDevices.xml evaluated successfully.  returns 0x00 (0416ms, 0484ms total)
T2A84 000:555 JLINK_ExecCommand("Device = LPC54114J256BD64:M4", ...). Device "LPC54112J256_M4" selected.  returns 0x00 (0022ms, 0507ms total)
T2A84 000:577 JLINK_ExecCommand("DisableConnectionTimeout", ...).   returns 0x01 (0000ms, 0507ms total)
T2A84 000:577 JLINK_GetHardwareVersion()  returns 0x2710 (0000ms, 0507ms total)
T2A84 000:578 JLINK_GetDLLVersion()  returns 61400 (0000ms, 0508ms total)
T2A84 000:578 JLINK_GetFirmwareString(...) (0000ms, 0508ms total)
T2A84 000:603 JLINK_GetDLLVersion()  returns 61400 (0001ms, 0509ms total)
T2A84 000:604 JLINK_GetCompileDateTime() (0000ms, 0509ms total)
T2A84 000:613 JLINK_GetFirmwareString(...) (0000ms, 0509ms total)
T2A84 000:620 JLINK_GetHardwareVersion()  returns 0x2710 (0000ms, 0509ms total)
T2A84 000:641 JLINK_TIF_Select(JLINKARM_TIF_SWD)  returns 0x00 (0003ms, 0512ms total)
T2A84 000:644 JLINK_SetSpeed(5000) (0001ms, 0513ms total)
T2A84 000:645 JLINK_GetId() >0x108 TIF>Found SWD-DP with ID 0x2BA01477 >0x0D TIF> >0x28 TIF> >0x0D TIF> >0x28 TIF> >0x0D TIF> >0x28 TIF> >0x0D TIF> >0x28 TIF> >0x0D TIF> >0x21 TIF> >0x0D TIF> >0x28 TIF> >0x0D TIF> >0x28 TIF> >0x0D TIF> >0x21 TIF> >0x0D TIF> >0x21 TIF> >0x0D TIF> >0x21 TIF>AP-IDR: 0x24770011, Type: AHB-APAHB-AP ROM: 0xE00FF000 (Base addr. of first ROM table) >0x0D TIF> >0x28 TIF> >0x0D TIF> >0x28 TIF> >0x0D TIF> >0x28 TIF> >0x0D TIF> >0x21 TIF> >0x0D TIF> >0x21 TIF> >0x0D TIF> >0x28 TIF>
 >0x0D TIF> >0x21 TIF> >0x0D TIF> >0x21 TIF>Found Cortex-M4 r0p1, Little endian. -- CPU_ReadMem(4 bytes @ 0xE000EDF0) -- CPU_WriteMem(4 bytes @ 0xE000EDF0) -- CPU_ReadMem(4 bytes @ 0xE0002000)FPUnit: 6 code (BP) slots and 2 literal slots -- CPU_ReadMem(4 bytes @ 0xE000EDFC) -- CPU_WriteMem(4 bytes @ 0xE000EDFC) -- CPU_ReadMem(4 bytes @ 0xE0001000) -- CPU_WriteMem(4 bytes @ 0xE0001000) -- CPU_ReadMem(4 bytes @ 0xE000ED88) -- CPU_WriteMem(4 bytes @ 0xE000ED88) -- CPU_ReadMem(4 bytes @ 0xE000ED88)
 -- CPU_WriteMem(4 bytes @ 0xE000ED88)CoreSight components:ROMTbl 0 @ E00FF000 -- CPU_ReadMem(16 bytes @ 0xE00FF000) -- CPU_ReadMem(16 bytes @ 0xE000EFF0) -- CPU_ReadMem(16 bytes @ 0xE000EFE0)ROMTbl 0 [0]: FFF0F000, CID: B105E00D, PID: 000BB00C SCS -- CPU_ReadMem(16 bytes @ 0xE0001FF0) -- CPU_ReadMem(16 bytes @ 0xE0001FE0)ROMTbl 0 [1]: FFF02000, CID: B105E00D, PID: 003BB002 DWT -- CPU_ReadMem(16 bytes @ 0xE0002FF0) -- CPU_ReadMem(16 bytes @ 0xE0002FE0)
ROMTbl 0 [2]: FFF03000, CID: B105E00D, PID: 002BB003 FPB -- CPU_ReadMem(16 bytes @ 0xE0000FF0) -- CPU_ReadMem(16 bytes @ 0xE0000FE0)ROMTbl 0 [3]: FFF01000, CID: B105E00D, PID: 003BB001 ITM -- CPU_ReadMem(16 bytes @ 0xE00FF010) -- CPU_ReadMem(16 bytes @ 0xE0040FF0) -- CPU_ReadMem(16 bytes @ 0xE0040FE0)ROMTbl 0 [4]: FFF41000, CID: B105900D, PID: 000BB9A1 TPIU >0x0D TIF> >0x21 TIF>  returns 0x2BA01477 (0159ms, 0672ms total)
T2A84 000:804 JLINK_GetDLLVersion()  returns 61400 (0000ms, 0672ms total)
T2A84 000:804 JLINK_CORE_GetFound()  returns 0xE0000FF (0000ms, 0672ms total)
T2A84 000:804 JLINK_GetDebugInfo(0x100 = JLINKARM_ROM_TABLE_ADDR_INDEX) -- Value=0xE00FF000  returns 0x00 (0001ms, 0673ms total)
T2A84 000:813 JLINK_GetDebugInfo(0x100 = JLINKARM_ROM_TABLE_ADDR_INDEX) -- Value=0xE00FF000  returns 0x00 (0000ms, 0673ms total)
T2A84 000:813 JLINK_GetDebugInfo(0x101 = JLINKARM_DEBUG_INFO_ETM_ADDR_INDEX) -- Value=0x00000000  returns 0x00 (0001ms, 0674ms total)
T2A84 000:814 JLINK_ReadMem (0xE0041FF0, 0x0010 Bytes, ...) -- CPU is running -- CPU_ReadMem(16 bytes @ 0xE0041FF0) - Data: 00 00 00 00 00 00 00 00 00 00 00 00 00 00 00 00  returns 0x00 (0001ms, 0675ms total)
T2A84 000:815 JLINK_GetDebugInfo(0x102 = JLINKARM_DEBUG_INFO_MTB_ADDR_INDEX) -- Value=0x00000000  returns 0x00 (0001ms, 0676ms total)
T2A84 000:816 JLINK_GetDebugInfo(0x103 = JLINKARM_DEBUG_INFO_TPIU_ADDR_INDEX) -- Value=0xE0040000  returns 0x00 (0000ms, 0676ms total)
T2A84 000:816 JLINK_GetDebugInfo(0x104 = JLINKARM_DEBUG_INFO_ITM_ADDR_INDEX) -- Value=0xE0000000  returns 0x00 (0001ms, 0677ms total)
T2A84 000:817 JLINK_GetDebugInfo(0x105 = JLINKARM_DEBUG_INFO_DWT_ADDR_INDEX) -- Value=0xE0001000  returns 0x00 (0000ms, 0677ms total)
T2A84 000:817 JLINK_GetDebugInfo(0x106 = JLINKARM_DEBUG_INFO_FPB_ADDR_INDEX) -- Value=0xE0002000  returns 0x00 (0001ms, 0678ms total)
T2A84 000:818 JLINK_GetDebugInfo(0x107 = JLINKARM_DEBUG_INFO_NVIC_ADDR_INDEX) -- Value=0xE000E000  returns 0x00 (0000ms, 0678ms total)
T2A84 000:818 JLINK_GetDebugInfo(0x10C = JLINKARM_DEBUG_INFO_DBG_ADDR_INDEX) -- Value=0xE000EDF0  returns 0x00 (0000ms, 0678ms total)
T2A84 000:819 JLINK_ReadMemU32(0xE000EF40, 0x0001 Items, ...) -- CPU is running -- CPU_ReadMem(4 bytes @ 0xE000EF40) - Data: 21 00 11 10  returns 0x01 (0001ms, 0680ms total)
T2A84 000:820 JLINK_ReadMemU32(0xE000EF44, 0x0001 Items, ...) -- CPU is running -- CPU_ReadMem(4 bytes @ 0xE000EF44) - Data: 11 00 00 11  returns 0x01 (0002ms, 0682ms total)
T2A84 000:822 JLINK_ReadMemU32(0xE000ED00, 0x0001 Items, ...) -- CPU is running -- CPU_ReadMem(4 bytes @ 0xE000ED00) - Data: 41 C2 0F 41  returns 0x01 (0001ms, 0683ms total)
T2A84 000:824 JLINK_SetResetType(JLINKARM_CM3_RESET_TYPE_NORMAL)  returns JLINKARM_CM3_RESET_TYPE_HALT_AFTER_BTL (0000ms, 0684ms total)
T2A84 000:824 JLINK_Reset() -- CPU is running -- CPU_WriteMem(4 bytes @ 0xE000EDF0) -- CPU is running -- CPU_WriteMem(4 bytes @ 0xE000EDFC) >0x35 TIF> -- CPU is running -- CPU_WriteMem(4 bytes @ 0xE000ED0C) -- CPU is running -- CPU_ReadMem(4 bytes @ 0xE000EDF0) -- CPU is running -- CPU_ReadMem(4 bytes @ 0xE000EDF0) -- CPU is running -- CPU_WriteMem(4 bytes @ 0xE000EDF0) -- CPU is running -- CPU_WriteMem(4 bytes @ 0xE000EDFC) -- CPU is running -- CPU_ReadMem(4 bytes @ 0xE000EDF0)
 -- CPU_WriteMem(4 bytes @ 0xE000EDFC) -- CPU_WriteMem(4 bytes @ 0xE000EDFC) -- CPU_WriteMem(4 bytes @ 0xE000EDFC) -- CPU_WriteMem(4 bytes @ 0xE000EDFC) -- CPU_WriteMem(4 bytes @ 0xE000EDFC) -- CPU_WriteMem(4 bytes @ 0xE0001050) -- CPU_WriteMem(4 bytes @ 0xE0001054) -- CPU_WriteMem(4 bytes @ 0xE0001058) -- CPU_ReadMem(4 bytes @ 0xE0001000) -- CPU_WriteMem(4 bytes @ 0xE000EDFC) -- CPU_WriteMem(4 bytes @ 0xE0001058) -- CPU_ReadMem(4 bytes @ 0x00000004) -- CPU_ReadMem(4 bytes @ 0xE0002000)
 -- CPU_ReadMem(4 bytes @ 0xE0002008) -- CPU_ReadMem(4 bytes @ 0xE000200C) -- CPU_ReadMem(4 bytes @ 0xE0002010) -- CPU_ReadMem(4 bytes @ 0xE0002014) -- CPU_ReadMem(4 bytes @ 0xE0002018) -- CPU_ReadMem(4 bytes @ 0xE000201C) -- CPU_WriteMem(4 bytes @ 0xE0002000) -- CPU_WriteMem(4 bytes @ 0xE0002008) -- CPU_WriteMem(4 bytes @ 0xE000200C) -- CPU_WriteMem(4 bytes @ 0xE0002010) -- CPU_WriteMem(4 bytes @ 0xE0002014) -- CPU_WriteMem(4 bytes @ 0xE0002018) -- CPU_WriteMem(4 bytes @ 0xE000201C)
 -- CPU_ReadMem(4 bytes @ 0xE0001000) -- CPU_ReadMem(4 bytes @ 0x40000000) -- CPU_WriteMem(4 bytes @ 0xE0002000) -- CPU_WriteMem(4 bytes @ 0xE0002008) -- CPU_WriteMem(4 bytes @ 0xE000200C) -- CPU_WriteMem(4 bytes @ 0xE0002010) -- CPU_WriteMem(4 bytes @ 0xE0002014) -- CPU_WriteMem(4 bytes @ 0xE0002018) -- CPU_WriteMem(4 bytes @ 0xE000201C) -- CPU_WriteMem(4 bytes @ 0xE0002000) -- CPU_ReadMem(4 bytes @ 0xE000EDFC) -- CPU_ReadMem(4 bytes @ 0xE0001000) (0285ms, 0969ms total)
T2A84 001:109 JLINK_Halt()  returns 0x00 (0000ms, 0969ms total)
T2A84 001:109 JLINK_IsHalted()  returns TRUE (0000ms, 0969ms total)
T2A84 001:109 JLINK_ReadMemU32(0xE000EDF0, 0x0001 Items, ...) -- CPU_ReadMem(4 bytes @ 0xE000EDF0) - Data: 03 00 03 00  returns 0x01 (0002ms, 0971ms total)
T2A84 001:111 JLINK_WriteU32(0xE000EDF0, 0xA05F0003) -- CPU_WriteMem(4 bytes @ 0xE000EDF0)  returns 0x00 (0002ms, 0973ms total)
T2A84 001:113 JLINK_WriteU32(0xE000EDFC, 0x01000000) -- CPU_WriteMem(4 bytes @ 0xE000EDFC)  returns 0x00 (0002ms, 0975ms total)
T2A84 001:141 JLINK_GetHWStatus(...)  returns 0x00 (0001ms, 0976ms total)
T2A84 001:162 JLINK_GetNumBPUnits(Type = 0xFFFFFF00)  returns 0x06 (0000ms, 0976ms total)
T2A84 001:162 JLINK_GetNumBPUnits(Type = 0xF0)  returns 0x2000 (0000ms, 0976ms total)
T2A84 001:162 JLINK_GetNumWPUnits()  returns 0x04 (0000ms, 0976ms total)
T2A84 001:181 JLINK_GetSpeed()  returns 0xFA0 (0000ms, 0976ms total)
T2A84 001:193 JLINK_ReadMemU32(0xE000E004, 0x0001 Items, ...) -- CPU_ReadMem(4 bytes @ 0xE000E004) - Data: 01 00 00 00  returns 0x01 (0002ms, 0978ms total)
T2A84 001:195 JLINK_ReadMemU32(0xE000E004, 0x0001 Items, ...) -- CPU_ReadMem(4 bytes @ 0xE000E004) - Data: 01 00 00 00  returns 0x01 (0001ms, 0979ms total)
T2A84 001:196 JLINK_WriteMem(0xE0001000, 0x001C Bytes, ...) - Data: 01 00 00 00 00 00 00 00 00 00 00 00 00 00 00 00 ... -- CPU_WriteMem(28 bytes @ 0xE0001000)  returns 0x1C (0003ms, 0982ms total)
T2A84 001:199 JLINK_ReadMem (0xE0001000, 0x001C Bytes, ...) -- CPU_ReadMem(28 bytes @ 0xE0001000) - Data: 01 00 00 40 00 00 00 00 00 00 00 00 00 00 00 00 ...  returns 0x00 (0002ms, 0984ms total)
T2A84 001:201 JLINK_Halt()  returns 0x00 (0000ms, 0984ms total)
T2A84 001:201 JLINK_IsHalted() -- CPU_ReadMem(4 bytes @ 0x40000000)  returns TRUE (0002ms, 0986ms total)
T2A84 001:209 JLINK_WriteMem(0x20000000, 0x0178 Bytes, ...) - Data: 00 BE 0A E0 0D 78 2D 06 68 40 08 24 40 00 00 D3 ... -- CPU_WriteMem(376 bytes @ 0x20000000)  returns 0x178 (0005ms, 0989ms total)
T2A84 001:214 JLINK_WriteReg(R0, 0x00000000)  returns 0x00 (0000ms, 0989ms total)
T2A84 001:214 JLINK_WriteReg(R1, 0x00B71B00)  returns 0x00 (0000ms, 0989ms total)
T2A84 001:214 JLINK_WriteReg(R2, 0x00000001)  returns 0x00 (0001ms, 0990ms total)
T2A84 001:215 JLINK_WriteReg(R3, 0x00000000)  returns 0x00 (0000ms, 0990ms total)
T2A84 001:215 JLINK_WriteReg(R4, 0x00000000)  returns 0x00 (0000ms, 0990ms total)
T2A84 001:215 JLINK_WriteReg(R5, 0x00000000)  returns 0x00 (0000ms, 0990ms total)
T2A84 001:215 JLINK_WriteReg(R6, 0x00000000)  returns 0x00 (0001ms, 0991ms total)
T2A84 001:216 JLINK_WriteReg(R7, 0x00000000)  returns 0x00 (0000ms, 0991ms total)
T2A84 001:216 JLINK_WriteReg(R8, 0x00000000)  returns 0x00 (0000ms, 0991ms total)
T2A84 001:217 JLINK_WriteReg(R9, 0x20000170)  returns 0x00 (0000ms, 0991ms total)
T2A84 001:217 JLINK_WriteReg(R10, 0x00000000)  returns 0x00 (0000ms, 0991ms total)
T2A84 001:217 JLINK_WriteReg(R11, 0x00000000)  returns 0x00 (0000ms, 0991ms total)
T2A84 001:217 JLINK_WriteReg(R12, 0x00000000)  returns 0x00 (0001ms, 0992ms total)
T2A84 001:218 JLINK_WriteReg(R13 (SP), 0x20001000)  returns 0x00 (0000ms, 0992ms total)
T2A84 001:218 JLINK_WriteReg(R14, 0x20000001)  returns 0x00 (0000ms, 0992ms total)
T2A84 001:218 JLINK_WriteReg(R15 (PC), 0x2000003C)  returns 0x00 (0000ms, 0992ms total)
T2A84 001:218 JLINK_WriteReg(XPSR, 0x01000000)  returns 0x00 (0001ms, 0993ms total)
T2A84 001:219 JLINK_WriteReg(MSP, 0x20001000)  returns 0x00 (0000ms, 0993ms total)
T2A84 001:219 JLINK_WriteReg(PSP, 0x20001000)  returns 0x00 (0000ms, 0993ms total)
T2A84 001:219 JLINK_WriteReg(CFBP, 0x00000000)  returns 0x00 (0000ms, 0993ms total)
T2A84 001:219 JLINK_SetBPEx(Addr = 0x20000000, Type = 0xFFFFFFF2) -- CPU_ReadMem(2 bytes @ 0x20000000)  returns 0x00000001 (0002ms, 0995ms total)
T2A84 001:221 JLINK_Go() -- CPU_WriteMem(2 bytes @ 0x20000000) -- CPU_ReadMem(4 bytes @ 0xE0001000) -- CPU_WriteMem(4 bytes @ 0xE0002008) -- CPU_WriteMem(4 bytes @ 0xE000200C) -- CPU_WriteMem(4 bytes @ 0xE0002010) -- CPU_WriteMem(4 bytes @ 0xE0002014) -- CPU_WriteMem(4 bytes @ 0xE0002018) -- CPU_WriteMem(4 bytes @ 0xE000201C) -- CPU_WriteMem(4 bytes @ 0xE0001004) (0016ms, 1011ms total)
T2A84 001:237 JLINK_IsHalted() -- CPU_ReadMem(2 bytes @ 0x20000000)  returns TRUE (0007ms, 1018ms total)
T2A84 001:244 JLINK_ReadReg(R15 (PC))  returns 0x20000000 (0000ms, 1011ms total)
T2A84 001:245 JLINK_ClrBPEx(BPHandle = 0x00000001)  returns 0x00 (0000ms, 1012ms total)
T2A84 001:245 JLINK_ReadReg(R0)  returns 0x00000000 (0000ms, 1012ms total)
T2A84 001:246 JLINK_WriteReg(R0, 0x00000000)  returns 0x00 (0000ms, 1012ms total)
T2A84 001:246 JLINK_WriteReg(R1, 0x00008000)  returns 0x00 (0000ms, 1012ms total)
T2A84 001:246 JLINK_WriteReg(R2, 0x000000FF)  returns 0x00 (0000ms, 1012ms total)
T2A84 001:246 JLINK_WriteReg(R3, 0x00000000)  returns 0x00 (0000ms, 1012ms total)
T2A84 001:246 JLINK_WriteReg(R4, 0x00000000)  returns 0x00 (0001ms, 1013ms total)
T2A84 001:247 JLINK_WriteReg(R5, 0x00000000)  returns 0x00 (0000ms, 1013ms total)
T2A84 001:247 JLINK_WriteReg(R6, 0x00000000)  returns 0x00 (0000ms, 1013ms total)
T2A84 001:247 JLINK_WriteReg(R7, 0x00000000)  returns 0x00 (0000ms, 1013ms total)
T2A84 001:247 JLINK_WriteReg(R8, 0x00000000)  returns 0x00 (0000ms, 1013ms total)
T2A84 001:248 JLINK_WriteReg(R9, 0x20000170)  returns 0x00 (0000ms, 1014ms total)
T2A84 001:248 JLINK_WriteReg(R10, 0x00000000)  returns 0x00 (0000ms, 1014ms total)
T2A84 001:248 JLINK_WriteReg(R11, 0x00000000)  returns 0x00 (0000ms, 1014ms total)
T2A84 001:248 JLINK_WriteReg(R12, 0x00000000)  returns 0x00 (0000ms, 1014ms total)
T2A84 001:248 JLINK_WriteReg(R13 (SP), 0x20001000)  returns 0x00 (0001ms, 1015ms total)
T2A84 001:249 JLINK_WriteReg(R14, 0x20000001)  returns 0x00 (0000ms, 1015ms total)
T2A84 001:249 JLINK_WriteReg(R15 (PC), 0x20000020)  returns 0x00 (0000ms, 1015ms total)
T2A84 001:249 JLINK_WriteReg(XPSR, 0x01000000)  returns 0x00 (0000ms, 1015ms total)
T2A84 001:249 JLINK_WriteReg(MSP, 0x20001000)  returns 0x00 (0001ms, 1016ms total)
T2A84 001:250 JLINK_WriteReg(PSP, 0x20001000)  returns 0x00 (0000ms, 1016ms total)
T2A84 001:250 JLINK_WriteReg(CFBP, 0x00000000)  returns 0x00 (0000ms, 1016ms total)
T2A84 001:250 JLINK_SetBPEx(Addr = 0x20000000, Type = 0xFFFFFFF2)  returns 0x00000002 (0000ms, 1016ms total)
T2A84 001:250 JLINK_Go() -- CPU_ReadMem(4 bytes @ 0xE0001000) (0005ms, 1021ms total)
T2A84 001:255 JLINK_IsHalted() -- CPU_ReadMem(2 bytes @ 0x20000000)  returns TRUE (0007ms, 1028ms total)
T2A84 001:262 JLINK_ReadReg(R15 (PC))  returns 0x20000000 (0000ms, 1021ms total)
T2A84 001:262 JLINK_ClrBPEx(BPHandle = 0x00000002)  returns 0x00 (0001ms, 1022ms total)
T2A84 001:263 JLINK_ReadReg(R0)  returns 0x00000001 (0000ms, 1022ms total)
T2A84 001:263 JLINK_WriteReg(R0, 0x00000000)  returns 0x00 (0000ms, 1022ms total)
T2A84 001:263 JLINK_WriteReg(R1, 0x00008000)  returns 0x00 (0000ms, 1022ms total)
T2A84 001:263 JLINK_WriteReg(R2, 0x000000FF)  returns 0x00 (0001ms, 1023ms total)
T2A84 001:264 JLINK_WriteReg(R3, 0x00000000)  returns 0x00 (0000ms, 1023ms total)
T2A84 001:264 JLINK_WriteReg(R4, 0x00000000)  returns 0x00 (0000ms, 1023ms total)
T2A84 001:264 JLINK_WriteReg(R5, 0x00000000)  returns 0x00 (0000ms, 1023ms total)
T2A84 001:264 JLINK_WriteReg(R6, 0x00000000)  returns 0x00 (0000ms, 1023ms total)
T2A84 001:264 JLINK_WriteReg(R7, 0x00000000)  returns 0x00 (0001ms, 1024ms total)
T2A84 001:265 JLINK_WriteReg(R8, 0x00000000)  returns 0x00 (0000ms, 1024ms total)
T2A84 001:265 JLINK_WriteReg(R9, 0x20000170)  returns 0x00 (0000ms, 1024ms total)
T2A84 001:265 JLINK_WriteReg(R10, 0x00000000)  returns 0x00 (0000ms, 1024ms total)
T2A84 001:265 JLINK_WriteReg(R11, 0x00000000)  returns 0x00 (0000ms, 1024ms total)
T2A84 001:266 JLINK_WriteReg(R12, 0x00000000)  returns 0x00 (0000ms, 1025ms total)
T2A84 001:266 JLINK_WriteReg(R13 (SP), 0x20001000)  returns 0x00 (0000ms, 1025ms total)
T2A84 001:266 JLINK_WriteReg(R14, 0x20000001)  returns 0x00 (0000ms, 1025ms total)
T2A84 001:266 JLINK_WriteReg(R15 (PC), 0x200000A2)  returns 0x00 (0000ms, 1025ms total)
T2A84 001:266 JLINK_WriteReg(XPSR, 0x01000000)  returns 0x00 (0001ms, 1026ms total)
T2A84 001:267 JLINK_WriteReg(MSP, 0x20001000)  returns 0x00 (0000ms, 1026ms total)
T2A84 001:267 JLINK_WriteReg(PSP, 0x20001000)  returns 0x00 (0000ms, 1026ms total)
T2A84 001:267 JLINK_WriteReg(CFBP, 0x00000000)  returns 0x00 (0000ms, 1026ms total)
T2A84 001:267 JLINK_SetBPEx(Addr = 0x20000000, Type = 0xFFFFFFF2)  returns 0x00000003 (0001ms, 1027ms total)
T2A84 001:268 JLINK_Go() -- CPU_ReadMem(4 bytes @ 0xE0001000) (0005ms, 1032ms total)
T2A84 001:273 JLINK_IsHalted()  returns FALSE (0002ms, 1034ms total)
T2A84 001:373 JLINK_IsHalted() -- CPU_ReadMem(2 bytes @ 0x20000000)  returns TRUE (0007ms, 1039ms total)
T2A84 001:380 JLINK_ReadReg(R15 (PC))  returns 0x20000000 (0000ms, 1039ms total)
T2A84 001:380 JLINK_ClrBPEx(BPHandle = 0x00000003)  returns 0x00 (0000ms, 1039ms total)
T2A84 001:380 JLINK_ReadReg(R0)  returns 0x00000000 (0000ms, 1039ms total)
T2A84 001:381 JLINK_WriteReg(R0, 0x00008000)  returns 0x00 (0001ms, 1040ms total)
T2A84 001:382 JLINK_WriteReg(R1, 0x00008000)  returns 0x00 (0000ms, 1040ms total)
T2A84 001:382 JLINK_WriteReg(R2, 0x000000FF)  returns 0x00 (0000ms, 1040ms total)
T2A84 001:382 JLINK_WriteReg(R3, 0x00000000)  returns 0x00 (0000ms, 1040ms total)
T2A84 001:382 JLINK_WriteReg(R4, 0x00000000)  returns 0x00 (0000ms, 1040ms total)
T2A84 001:383 JLINK_WriteReg(R5, 0x00000000)  returns 0x00 (0000ms, 1041ms total)
T2A84 001:383 JLINK_WriteReg(R6, 0x00000000)  returns 0x00 (0000ms, 1041ms total)
T2A84 001:383 JLINK_WriteReg(R7, 0x00000000)  returns 0x00 (0000ms, 1041ms total)
T2A84 001:383 JLINK_WriteReg(R8, 0x00000000)  returns 0x00 (0001ms, 1042ms total)
T2A84 001:384 JLINK_WriteReg(R9, 0x20000170)  returns 0x00 (0000ms, 1042ms total)
T2A84 001:384 JLINK_WriteReg(R10, 0x00000000)  returns 0x00 (0000ms, 1042ms total)
T2A84 001:384 JLINK_WriteReg(R11, 0x00000000)  returns 0x00 (0000ms, 1042ms total)
T2A84 001:384 JLINK_WriteReg(R12, 0x00000000)  returns 0x00 (0001ms, 1043ms total)
T2A84 001:385 JLINK_WriteReg(R13 (SP), 0x20001000)  returns 0x00 (0000ms, 1043ms total)
T2A84 001:385 JLINK_WriteReg(R14, 0x20000001)  returns 0x00 (0000ms, 1043ms total)
T2A84 001:385 JLINK_WriteReg(R15 (PC), 0x20000020)  returns 0x00 (0000ms, 1043ms total)
T2A84 001:385 JLINK_WriteReg(XPSR, 0x01000000)  returns 0x00 (0001ms, 1044ms total)
T2A84 001:386 JLINK_WriteReg(MSP, 0x20001000)  returns 0x00 (0000ms, 1044ms total)
T2A84 001:386 JLINK_WriteReg(PSP, 0x20001000)  returns 0x00 (0000ms, 1044ms total)
T2A84 001:386 JLINK_WriteReg(CFBP, 0x00000000)  returns 0x00 (0000ms, 1044ms total)
T2A84 001:386 JLINK_SetBPEx(Addr = 0x20000000, Type = 0xFFFFFFF2)  returns 0x00000004 (0000ms, 1044ms total)
T2A84 001:387 JLINK_Go() -- CPU_ReadMem(4 bytes @ 0xE0001000) (0005ms, 1050ms total)
T2A84 001:393 JLINK_IsHalted() -- CPU_ReadMem(2 bytes @ 0x20000000)  returns TRUE (0006ms, 1057ms total)
T2A84 001:399 JLINK_ReadReg(R15 (PC))  returns 0x20000000 (0000ms, 1051ms total)
T2A84 001:400 JLINK_ClrBPEx(BPHandle = 0x00000004)  returns 0x00 (0000ms, 1051ms total)
T2A84 001:400 JLINK_ReadReg(R0)  returns 0x00000001 (0000ms, 1051ms total)
T2A84 001:400 JLINK_WriteReg(R0, 0x00008000)  returns 0x00 (0000ms, 1051ms total)
T2A84 001:400 JLINK_WriteReg(R1, 0x00008000)  returns 0x00 (0001ms, 1052ms total)
T2A84 001:401 JLINK_WriteReg(R2, 0x000000FF)  returns 0x00 (0000ms, 1052ms total)
T2A84 001:401 JLINK_WriteReg(R3, 0x00000000)  returns 0x00 (0000ms, 1052ms total)
T2A84 001:401 JLINK_WriteReg(R4, 0x00000000)  returns 0x00 (0000ms, 1052ms total)
T2A84 001:401 JLINK_WriteReg(R5, 0x00000000)  returns 0x00 (0000ms, 1052ms total)
T2A84 001:402 JLINK_WriteReg(R6, 0x00000000)  returns 0x00 (0000ms, 1052ms total)
T2A84 001:402 JLINK_WriteReg(R7, 0x00000000)  returns 0x00 (0000ms, 1052ms total)
T2A84 001:402 JLINK_WriteReg(R8, 0x00000000)  returns 0x00 (0000ms, 1052ms total)
T2A84 001:402 JLINK_WriteReg(R9, 0x20000170)  returns 0x00 (0000ms, 1052ms total)
T2A84 001:402 JLINK_WriteReg(R10, 0x00000000)  returns 0x00 (0001ms, 1053ms total)
T2A84 001:403 JLINK_WriteReg(R11, 0x00000000)  returns 0x00 (0000ms, 1053ms total)
T2A84 001:403 JLINK_WriteReg(R12, 0x00000000)  returns 0x00 (0000ms, 1053ms total)
T2A84 001:403 JLINK_WriteReg(R13 (SP), 0x20001000)  returns 0x00 (0000ms, 1053ms total)
T2A84 001:403 JLINK_WriteReg(R14, 0x20000001)  returns 0x00 (0001ms, 1054ms total)
T2A84 001:404 JLINK_WriteReg(R15 (PC), 0x200000A2)  returns 0x00 (0000ms, 1054ms total)
T2A84 001:404 JLINK_WriteReg(XPSR, 0x01000000)  returns 0x00 (0000ms, 1054ms total)
T2A84 001:404 JLINK_WriteReg(MSP, 0x20001000)  returns 0x00 (0000ms, 1054ms total)
T2A84 001:404 JLINK_WriteReg(PSP, 0x20001000)  returns 0x00 (0000ms, 1054ms total)
T2A84 001:404 JLINK_WriteReg(CFBP, 0x00000000)  returns 0x00 (0001ms, 1055ms total)
T2A84 001:405 JLINK_SetBPEx(Addr = 0x20000000, Type = 0xFFFFFFF2)  returns 0x00000005 (0000ms, 1055ms total)
T2A84 001:405 JLINK_Go() -- CPU_ReadMem(4 bytes @ 0xE0001000) (0006ms, 1061ms total)
T2A84 001:411 JLINK_IsHalted()  returns FALSE (0001ms, 1062ms total)
T2A84 001:427 JLINK_IsHalted()  returns FALSE (0001ms, 1062ms total)
T2A84 001:429 JLINK_IsHalted()  returns FALSE (0001ms, 1062ms total)
T2A84 001:431 JLINK_IsHalted()  returns FALSE (0002ms, 1063ms total)
T2A84 001:438 JLINK_IsHalted()  returns FALSE (0001ms, 1062ms total)
T2A84 001:440 JLINK_IsHalted()  returns FALSE (0001ms, 1062ms total)
T2A84 001:442 JLINK_IsHalted()  returns FALSE (0002ms, 1063ms total)
T2A84 001:454 JLINK_IsHalted()  returns FALSE (0001ms, 1062ms total)
T2A84 001:464 JLINK_IsHalted()  returns FALSE (0001ms, 1062ms total)
T2A84 001:467 JLINK_IsHalted()  returns FALSE (0001ms, 1062ms total)
T2A84 001:470 JLINK_IsHalted()  returns FALSE (0001ms, 1062ms total)
T2A84 001:476 JLINK_IsHalted()  returns FALSE (0001ms, 1062ms total)
T2A84 001:478 JLINK_IsHalted()  returns FALSE (0001ms, 1062ms total)
T2A84 001:480 JLINK_IsHalted()  returns FALSE (0001ms, 1062ms total)
T2A84 001:482 JLINK_IsHalted()  returns FALSE (0001ms, 1062ms total)
T2A84 001:484 JLINK_IsHalted()  returns FALSE (0001ms, 1062ms total)
T2A84 001:491 JLINK_IsHalted()  returns FALSE (0001ms, 1062ms total)
T2A84 001:493 JLINK_IsHalted()  returns FALSE (0001ms, 1062ms total)
T2A84 001:496 JLINK_IsHalted()  returns FALSE (0002ms, 1063ms total)
T2A84 001:499 JLINK_IsHalted()  returns FALSE (0001ms, 1062ms total)
T2A84 001:506 JLINK_IsHalted()  returns FALSE (0002ms, 1063ms total)
T2A84 001:509 JLINK_IsHalted()  returns FALSE (0001ms, 1062ms total)
T2A84 001:512 JLINK_IsHalted() -- CPU_ReadMem(2 bytes @ 0x20000000)  returns TRUE (0006ms, 1067ms total)
T2A84 001:518 JLINK_ReadReg(R15 (PC))  returns 0x20000000 (0001ms, 1062ms total)
T2A84 001:519 JLINK_ClrBPEx(BPHandle = 0x00000005)  returns 0x00 (0000ms, 1062ms total)
T2A84 001:519 JLINK_ReadReg(R0)  returns 0x00000000 (0000ms, 1062ms total)
T2A84 001:520 JLINK_WriteReg(R0, 0x00000001)  returns 0x00 (0000ms, 1062ms total)
T2A84 001:520 JLINK_WriteReg(R1, 0x00008000)  returns 0x00 (0000ms, 1062ms total)
T2A84 001:520 JLINK_WriteReg(R2, 0x000000FF)  returns 0x00 (0000ms, 1062ms total)
T2A84 001:520 JLINK_WriteReg(R3, 0x00000000)  returns 0x00 (0001ms, 1063ms total)
T2A84 001:521 JLINK_WriteReg(R4, 0x00000000)  returns 0x00 (0000ms, 1063ms total)
T2A84 001:521 JLINK_WriteReg(R5, 0x00000000)  returns 0x00 (0000ms, 1063ms total)
T2A84 001:521 JLINK_WriteReg(R6, 0x00000000)  returns 0x00 (0000ms, 1063ms total)
T2A84 001:521 JLINK_WriteReg(R7, 0x00000000)  returns 0x00 (0001ms, 1064ms total)
T2A84 001:522 JLINK_WriteReg(R8, 0x00000000)  returns 0x00 (0000ms, 1064ms total)
T2A84 001:522 JLINK_WriteReg(R9, 0x20000170)  returns 0x00 (0000ms, 1064ms total)
T2A84 001:522 JLINK_WriteReg(R10, 0x00000000)  returns 0x00 (0000ms, 1064ms total)
T2A84 001:522 JLINK_WriteReg(R11, 0x00000000)  returns 0x00 (0000ms, 1064ms total)
T2A84 001:523 JLINK_WriteReg(R12, 0x00000000)  returns 0x00 (0000ms, 1065ms total)
T2A84 001:523 JLINK_WriteReg(R13 (SP), 0x20001000)  returns 0x00 (0000ms, 1065ms total)
T2A84 001:523 JLINK_WriteReg(R14, 0x20000001)  returns 0x00 (0000ms, 1065ms total)
T2A84 001:523 JLINK_WriteReg(R15 (PC), 0x2000005A)  returns 0x00 (0000ms, 1065ms total)
T2A84 001:523 JLINK_WriteReg(XPSR, 0x01000000)  returns 0x00 (0001ms, 1066ms total)
T2A84 001:524 JLINK_WriteReg(MSP, 0x20001000)  returns 0x00 (0000ms, 1066ms total)
T2A84 001:524 JLINK_WriteReg(PSP, 0x20001000)  returns 0x00 (0000ms, 1066ms total)
T2A84 001:524 JLINK_WriteReg(CFBP, 0x00000000)  returns 0x00 (0000ms, 1066ms total)
T2A84 001:524 JLINK_SetBPEx(Addr = 0x20000000, Type = 0xFFFFFFF2)  returns 0x00000006 (0000ms, 1066ms total)
T2A84 001:524 JLINK_Go() -- CPU_ReadMem(4 bytes @ 0xE0001000) (0006ms, 1072ms total)
T2A84 001:531 JLINK_IsHalted() -- CPU_ReadMem(2 bytes @ 0x20000000)  returns TRUE (0007ms, 1080ms total)
T2A84 001:538 JLINK_ReadReg(R15 (PC))  returns 0x20000000 (0000ms, 1073ms total)
T2A84 001:538 JLINK_ClrBPEx(BPHandle = 0x00000006)  returns 0x00 (0000ms, 1073ms total)
T2A84 001:539 JLINK_ReadReg(R0)  returns 0x00000000 (0000ms, 1074ms total)
T2A84 001:615 JLINK_WriteMem(0x20000000, 0x0178 Bytes, ...) - Data: 00 BE 0A E0 0D 78 2D 06 68 40 08 24 40 00 00 D3 ... -- CPU_WriteMem(376 bytes @ 0x20000000)  returns 0x178 (0004ms, 1078ms total)
T2A84 001:619 JLINK_WriteReg(R0, 0x00000000)  returns 0x00 (0001ms, 1079ms total)
T2A84 001:620 JLINK_WriteReg(R1, 0x00B71B00)  returns 0x00 (0000ms, 1079ms total)
T2A84 001:620 JLINK_WriteReg(R2, 0x00000002)  returns 0x00 (0001ms, 1080ms total)
T2A84 001:621 JLINK_WriteReg(R3, 0x00000000)  returns 0x00 (0000ms, 1080ms total)
T2A84 001:621 JLINK_WriteReg(R4, 0x00000000)  returns 0x00 (0000ms, 1080ms total)
T2A84 001:621 JLINK_WriteReg(R5, 0x00000000)  returns 0x00 (0001ms, 1081ms total)
T2A84 001:622 JLINK_WriteReg(R6, 0x00000000)  returns 0x00 (0000ms, 1081ms total)
T2A84 001:622 JLINK_WriteReg(R7, 0x00000000)  returns 0x00 (0000ms, 1081ms total)
T2A84 001:622 JLINK_WriteReg(R8, 0x00000000)  returns 0x00 (0001ms, 1082ms total)
T2A84 001:623 JLINK_WriteReg(R9, 0x20000170)  returns 0x00 (0000ms, 1082ms total)
T2A84 001:623 JLINK_WriteReg(R10, 0x00000000)  returns 0x00 (0000ms, 1082ms total)
T2A84 001:623 JLINK_WriteReg(R11, 0x00000000)  returns 0x00 (0001ms, 1083ms total)
T2A84 001:624 JLINK_WriteReg(R12, 0x00000000)  returns 0x00 (0000ms, 1083ms total)
T2A84 001:624 JLINK_WriteReg(R13 (SP), 0x20001000)  returns 0x00 (0000ms, 1083ms total)
T2A84 001:625 JLINK_WriteReg(R14, 0x20000001)  returns 0x00 (0000ms, 1084ms total)
T2A84 001:625 JLINK_WriteReg(R15 (PC), 0x2000003C)  returns 0x00 (0000ms, 1084ms total)
T2A84 001:625 JLINK_WriteReg(XPSR, 0x01000000)  returns 0x00 (0000ms, 1084ms total)
T2A84 001:626 JLINK_WriteReg(MSP, 0x20001000)  returns 0x00 (0000ms, 1085ms total)
T2A84 001:626 JLINK_WriteReg(PSP, 0x20001000)  returns 0x00 (0000ms, 1085ms total)
T2A84 001:626 JLINK_WriteReg(CFBP, 0x00000000)  returns 0x00 (0000ms, 1085ms total)
T2A84 001:626 JLINK_SetBPEx(Addr = 0x20000000, Type = 0xFFFFFFF2) -- CPU_ReadMem(2 bytes @ 0x20000000)  returns 0x00000007 (0003ms, 1088ms total)
T2A84 001:629 JLINK_Go() -- CPU_WriteMem(2 bytes @ 0x20000000) -- CPU_ReadMem(4 bytes @ 0xE0001000) (0009ms, 1097ms total)
T2A84 001:638 JLINK_IsHalted() -- CPU_ReadMem(2 bytes @ 0x20000000)  returns TRUE (0008ms, 1105ms total)
T2A84 001:646 JLINK_ReadReg(R15 (PC))  returns 0x20000000 (0000ms, 1097ms total)
T2A84 001:646 JLINK_ClrBPEx(BPHandle = 0x00000007)  returns 0x00 (0001ms, 1098ms total)
T2A84 001:647 JLINK_ReadReg(R0)  returns 0x00000000 (0000ms, 1098ms total)
T2A84 001:648 JLINK_WriteMem(0x200001A0, 0x0400 Bytes, ...) - Data: 00 80 00 04 09 01 00 00 4B 01 00 00 4D 01 00 00 ... -- CPU_WriteMem(1024 bytes @ 0x200001A0)  returns 0x400 (0008ms, 1106ms total)
T2A84 001:656 JLINK_WriteReg(R0, 0x00000000)  returns 0x00 (0000ms, 1106ms total)
T2A84 001:656 JLINK_WriteReg(R1, 0x00000400)  returns 0x00 (0001ms, 1107ms total)
T2A84 001:657 JLINK_WriteReg(R2, 0x200001A0)  returns 0x00 (0000ms, 1107ms total)
T2A84 001:657 JLINK_WriteReg(R3, 0x00000000)  returns 0x00 (0001ms, 1108ms total)
T2A84 001:658 JLINK_WriteReg(R4, 0x00000000)  returns 0x00 (0000ms, 1108ms total)
T2A84 001:658 JLINK_WriteReg(R5, 0x00000000)  returns 0x00 (0000ms, 1108ms total)
T2A84 001:658 JLINK_WriteReg(R6, 0x00000000)  returns 0x00 (0001ms, 1109ms total)
T2A84 001:659 JLINK_WriteReg(R7, 0x00000000)  returns 0x00 (0000ms, 1109ms total)
T2A84 001:659 JLINK_WriteReg(R8, 0x00000000)  returns 0x00 (0001ms, 1110ms total)
T2A84 001:660 JLINK_WriteReg(R9, 0x20000170)  returns 0x00 (0000ms, 1110ms total)
T2A84 001:660 JLINK_WriteReg(R10, 0x00000000)  returns 0x00 (0000ms, 1110ms total)
T2A84 001:660 JLINK_WriteReg(R11, 0x00000000)  returns 0x00 (0000ms, 1110ms total)
T2A84 001:661 JLINK_WriteReg(R12, 0x00000000)  returns 0x00 (0000ms, 1111ms total)
T2A84 001:661 JLINK_WriteReg(R13 (SP), 0x20001000)  returns 0x00 (0000ms, 1111ms total)
T2A84 001:661 JLINK_WriteReg(R14, 0x20000001)  returns 0x00 (0000ms, 1111ms total)
T2A84 001:661 JLINK_WriteReg(R15 (PC), 0x200000E8)  returns 0x00 (0001ms, 1112ms total)
T2A84 001:662 JLINK_WriteReg(XPSR, 0x01000000)  returns 0x00 (0000ms, 1112ms total)
T2A84 001:662 JLINK_WriteReg(MSP, 0x20001000)  returns 0x00 (0000ms, 1112ms total)
T2A84 001:662 JLINK_WriteReg(PSP, 0x20001000)  returns 0x00 (0001ms, 1113ms total)
T2A84 001:663 JLINK_WriteReg(CFBP, 0x00000000)  returns 0x00 (0000ms, 1113ms total)
T2A84 001:664 JLINK_SetBPEx(Addr = 0x20000000, Type = 0xFFFFFFF2)  returns 0x00000008 (0000ms, 1114ms total)
T2A84 001:664 JLINK_Go() -- CPU_ReadMem(4 bytes @ 0xE0001000) (0005ms, 1119ms total)
T2A84 001:669 JLINK_IsHalted()  returns FALSE (0002ms, 1121ms total)
T2A84 001:716 JLINK_IsHalted() -- CPU_ReadMem(2 bytes @ 0x20000000)  returns TRUE (0007ms, 1126ms total)
T2A84 001:723 JLINK_ReadReg(R15 (PC))  returns 0x20000000 (0000ms, 1119ms total)
T2A84 001:723 JLINK_ClrBPEx(BPHandle = 0x00000008)  returns 0x00 (0001ms, 1120ms total)
T2A84 001:724 JLINK_ReadReg(R0)  returns 0x00000000 (0000ms, 1120ms total)
T2A84 001:727 JLINK_WriteMem(0x200001A0, 0x0400 Bytes, ...) - Data: AC 42 F6 D3 FF F7 70 FE 80 E0 00 00 A0 E0 00 00 ... -- CPU_WriteMem(1024 bytes @ 0x200001A0)  returns 0x400 (0008ms, 1128ms total)
T2A84 001:735 JLINK_WriteReg(R0, 0x00000400)  returns 0x00 (0000ms, 1128ms total)
T2A84 001:735 JLINK_WriteReg(R1, 0x00000400)  returns 0x00 (0000ms, 1128ms total)
T2A84 001:735 JLINK_WriteReg(R2, 0x200001A0)  returns 0x00 (0001ms, 1129ms total)
T2A84 001:736 JLINK_WriteReg(R3, 0x00000000)  returns 0x00 (0000ms, 1129ms total)
T2A84 001:736 JLINK_WriteReg(R4, 0x00000000)  returns 0x00 (0001ms, 1130ms total)
T2A84 001:737 JLINK_WriteReg(R5, 0x00000000)  returns 0x00 (0000ms, 1130ms total)
T2A84 001:737 JLINK_WriteReg(R6, 0x00000000)  returns 0x00 (0000ms, 1130ms total)
T2A84 001:737 JLINK_WriteReg(R7, 0x00000000)  returns 0x00 (0000ms, 1130ms total)
T2A84 001:737 JLINK_WriteReg(R8, 0x00000000)  returns 0x00 (0001ms, 1131ms total)
T2A84 001:738 JLINK_WriteReg(R9, 0x20000170)  returns 0x00 (0000ms, 1131ms total)
T2A84 001:738 JLINK_WriteReg(R10, 0x00000000)  returns 0x00 (0000ms, 1131ms total)
T2A84 001:739 JLINK_WriteReg(R11, 0x00000000)  returns 0x00 (0000ms, 1132ms total)
T2A84 001:739 JLINK_WriteReg(R12, 0x00000000)  returns 0x00 (0000ms, 1132ms total)
T2A84 001:739 JLINK_WriteReg(R13 (SP), 0x20001000)  returns 0x00 (0000ms, 1132ms total)
T2A84 001:739 JLINK_WriteReg(R14, 0x20000001)  returns 0x00 (0001ms, 1133ms total)
T2A84 001:740 JLINK_WriteReg(R15 (PC), 0x200000E8)  returns 0x00 (0000ms, 1133ms total)
T2A84 001:740 JLINK_WriteReg(XPSR, 0x01000000)  returns 0x00 (0000ms, 1133ms total)
T2A84 001:740 JLINK_WriteReg(MSP, 0x20001000)  returns 0x00 (0000ms, 1133ms total)
T2A84 001:740 JLINK_WriteReg(PSP, 0x20001000)  returns 0x00 (0001ms, 1134ms total)
T2A84 001:741 JLINK_WriteReg(CFBP, 0x00000000)  returns 0x00 (0000ms, 1134ms total)
T2A84 001:741 JLINK_SetBPEx(Addr = 0x20000000, Type = 0xFFFFFFF2)  returns 0x00000009 (0000ms, 1134ms total)
T2A84 001:741 JLINK_Go() -- CPU_ReadMem(4 bytes @ 0xE0001000) (0006ms, 1140ms total)
T2A84 001:748 JLINK_IsHalted()  returns FALSE (0001ms, 1142ms total)
T2A84 001:750 JLINK_IsHalted()  returns FALSE (0001ms, 1142ms total)
T2A84 001:753 JLINK_IsHalted() -- CPU_ReadMem(2 bytes @ 0x20000000)  returns TRUE (0007ms, 1148ms total)
T2A84 001:760 JLINK_ReadReg(R15 (PC))  returns 0x20000000 (0001ms, 1142ms total)
T2A84 001:761 JLINK_ClrBPEx(BPHandle = 0x00000009)  returns 0x00 (0000ms, 1142ms total)
T2A84 001:761 JLINK_ReadReg(R0)  returns 0x00000000 (0001ms, 1143ms total)
T2A84 001:765 JLINK_WriteMem(0x200001A0, 0x0400 Bytes, ...) - Data: 00 F0 FC F8 10 BD 11 48 50 F8 24 00 01 28 02 D1 ... -- CPU_WriteMem(1024 bytes @ 0x200001A0)  returns 0x400 (0007ms, 1150ms total)
T2A84 001:772 JLINK_WriteReg(R0, 0x00000800)  returns 0x00 (0001ms, 1151ms total)
T2A84 001:773 JLINK_WriteReg(R1, 0x00000400)  returns 0x00 (0000ms, 1151ms total)
T2A84 001:773 JLINK_WriteReg(R2, 0x200001A0)  returns 0x00 (0000ms, 1151ms total)
T2A84 001:773 JLINK_WriteReg(R3, 0x00000000)  returns 0x00 (0001ms, 1152ms total)
T2A84 001:774 JLINK_WriteReg(R4, 0x00000000)  returns 0x00 (0000ms, 1152ms total)
T2A84 001:774 JLINK_WriteReg(R5, 0x00000000)  returns 0x00 (0000ms, 1152ms total)
T2A84 001:774 JLINK_WriteReg(R6, 0x00000000)  returns 0x00 (0001ms, 1153ms total)
T2A84 001:775 JLINK_WriteReg(R7, 0x00000000)  returns 0x00 (0000ms, 1153ms total)
T2A84 001:775 JLINK_WriteReg(R8, 0x00000000)  returns 0x00 (0000ms, 1153ms total)
T2A84 001:775 JLINK_WriteReg(R9, 0x20000170)  returns 0x00 (0001ms, 1154ms total)
T2A84 001:776 JLINK_WriteReg(R10, 0x00000000)  returns 0x00 (0000ms, 1154ms total)
T2A84 001:776 JLINK_WriteReg(R11, 0x00000000)  returns 0x00 (0000ms, 1154ms total)
T2A84 001:776 JLINK_WriteReg(R12, 0x00000000)  returns 0x00 (0001ms, 1155ms total)
T2A84 001:777 JLINK_WriteReg(R13 (SP), 0x20001000)  returns 0x00 (0000ms, 1155ms total)
T2A84 001:777 JLINK_WriteReg(R14, 0x20000001)  returns 0x00 (0000ms, 1155ms total)
T2A84 001:777 JLINK_WriteReg(R15 (PC), 0x200000E8)  returns 0x00 (0001ms, 1156ms total)
T2A84 001:778 JLINK_WriteReg(XPSR, 0x01000000)  returns 0x00 (0000ms, 1156ms total)
T2A84 001:778 JLINK_WriteReg(MSP, 0x20001000)  returns 0x00 (0000ms, 1156ms total)
T2A84 001:778 JLINK_WriteReg(PSP, 0x20001000)  returns 0x00 (0000ms, 1156ms total)
T2A84 001:779 JLINK_WriteReg(CFBP, 0x00000000)  returns 0x00 (0000ms, 1157ms total)
T2A84 001:779 JLINK_SetBPEx(Addr = 0x20000000, Type = 0xFFFFFFF2)  returns 0x0000000A (0000ms, 1157ms total)
T2A84 001:779 JLINK_Go() -- CPU_ReadMem(4 bytes @ 0xE0001000) (0006ms, 1163ms total)
T2A84 001:786 JLINK_IsHalted()  returns FALSE (0001ms, 1165ms total)
T2A84 001:789 JLINK_IsHalted() -- CPU_ReadMem(2 bytes @ 0x20000000)  returns TRUE (0007ms, 1171ms total)
T2A84 001:796 JLINK_ReadReg(R15 (PC))  returns 0x20000000 (0001ms, 1165ms total)
T2A84 001:797 JLINK_ClrBPEx(BPHandle = 0x0000000A)  returns 0x00 (0000ms, 1165ms total)
T2A84 001:797 JLINK_ReadReg(R0)  returns 0x00000000 (0000ms, 1165ms total)
T2A84 001:799 JLINK_WriteMem(0x200001A0, 0x0400 Bytes, ...) - Data: 00 F0 0C F8 10 BD 10 B5 03 20 00 F0 07 F8 10 BD ... -- CPU_WriteMem(1024 bytes @ 0x200001A0)  returns 0x400 (0008ms, 1173ms total)
T2A84 001:807 JLINK_WriteReg(R0, 0x00000C00)  returns 0x00 (0000ms, 1173ms total)
T2A84 001:807 JLINK_WriteReg(R1, 0x00000400)  returns 0x00 (0001ms, 1174ms total)
T2A84 001:808 JLINK_WriteReg(R2, 0x200001A0)  returns 0x00 (0000ms, 1174ms total)
T2A84 001:808 JLINK_WriteReg(R3, 0x00000000)  returns 0x00 (0000ms, 1174ms total)
T2A84 001:808 JLINK_WriteReg(R4, 0x00000000)  returns 0x00 (0001ms, 1175ms total)
T2A84 001:809 JLINK_WriteReg(R5, 0x00000000)  returns 0x00 (0000ms, 1175ms total)
T2A84 001:809 JLINK_WriteReg(R6, 0x00000000)  returns 0x00 (0000ms, 1175ms total)
T2A84 001:809 JLINK_WriteReg(R7, 0x00000000)  returns 0x00 (0001ms, 1176ms total)
T2A84 001:810 JLINK_WriteReg(R8, 0x00000000)  returns 0x00 (0000ms, 1176ms total)
T2A84 001:810 JLINK_WriteReg(R9, 0x20000170)  returns 0x00 (0000ms, 1176ms total)
T2A84 001:810 JLINK_WriteReg(R10, 0x00000000)  returns 0x00 (0001ms, 1177ms total)
T2A84 001:811 JLINK_WriteReg(R11, 0x00000000)  returns 0x00 (0000ms, 1177ms total)
T2A84 001:811 JLINK_WriteReg(R12, 0x00000000)  returns 0x00 (0000ms, 1177ms total)
T2A84 001:811 JLINK_WriteReg(R13 (SP), 0x20001000)  returns 0x00 (0001ms, 1178ms total)
T2A84 001:812 JLINK_WriteReg(R14, 0x20000001)  returns 0x00 (0000ms, 1178ms total)
T2A84 001:812 JLINK_WriteReg(R15 (PC), 0x200000E8)  returns 0x00 (0000ms, 1178ms total)
T2A84 001:812 JLINK_WriteReg(XPSR, 0x01000000)  returns 0x00 (0001ms, 1179ms total)
T2A84 001:813 JLINK_WriteReg(MSP, 0x20001000)  returns 0x00 (0000ms, 1179ms total)
T2A84 001:813 JLINK_WriteReg(PSP, 0x20001000)  returns 0x00 (0001ms, 1180ms total)
T2A84 001:814 JLINK_WriteReg(CFBP, 0x00000000)  returns 0x00 (0000ms, 1180ms total)
T2A84 001:814 JLINK_SetBPEx(Addr = 0x20000000, Type = 0xFFFFFFF2)  returns 0x0000000B (0000ms, 1180ms total)
T2A84 001:814 JLINK_Go() -- CPU_ReadMem(4 bytes @ 0xE0001000) (0007ms, 1187ms total)
T2A84 001:821 JLINK_IsHalted()  returns FALSE (0002ms, 1189ms total)
T2A84 001:837 JLINK_IsHalted() -- CPU_ReadMem(2 bytes @ 0x20000000)  returns TRUE (0008ms, 1195ms total)
T2A84 001:845 JLINK_ReadReg(R15 (PC))  returns 0x20000000 (0000ms, 1187ms total)
T2A84 001:846 JLINK_ClrBPEx(BPHandle = 0x0000000B)  returns 0x00 (0000ms, 1188ms total)
T2A84 001:846 JLINK_ReadReg(R0)  returns 0x00000000 (0000ms, 1188ms total)
T2A84 001:848 JLINK_WriteMem(0x200001A0, 0x0400 Bytes, ...) - Data: 75 2C 28 D1 14 98 00 68 01 90 14 98 00 1D 14 90 ... -- CPU_WriteMem(1024 bytes @ 0x200001A0)  returns 0x400 (0007ms, 1195ms total)
T2A84 001:855 JLINK_WriteReg(R0, 0x00001000)  returns 0x00 (0001ms, 1196ms total)
T2A84 001:856 JLINK_WriteReg(R1, 0x00000400)  returns 0x00 (0000ms, 1196ms total)
T2A84 001:856 JLINK_WriteReg(R2, 0x200001A0)  returns 0x00 (0001ms, 1197ms total)
T2A84 001:857 JLINK_WriteReg(R3, 0x00000000)  returns 0x00 (0000ms, 1197ms total)
T2A84 001:857 JLINK_WriteReg(R4, 0x00000000)  returns 0x00 (0000ms, 1197ms total)
T2A84 001:857 JLINK_WriteReg(R5, 0x00000000)  returns 0x00 (0000ms, 1197ms total)
T2A84 001:858 JLINK_WriteReg(R6, 0x00000000)  returns 0x00 (0000ms, 1198ms total)
T2A84 001:858 JLINK_WriteReg(R7, 0x00000000)  returns 0x00 (0000ms, 1198ms total)
T2A84 001:858 JLINK_WriteReg(R8, 0x00000000)  returns 0x00 (0000ms, 1198ms total)
T2A84 001:859 JLINK_WriteReg(R9, 0x20000170)  returns 0x00 (0000ms, 1199ms total)
T2A84 001:859 JLINK_WriteReg(R10, 0x00000000)  returns 0x00 (0000ms, 1199ms total)
T2A84 001:859 JLINK_WriteReg(R11, 0x00000000)  returns 0x00 (0000ms, 1199ms total)
T2A84 001:859 JLINK_WriteReg(R12, 0x00000000)  returns 0x00 (0001ms, 1200ms total)
T2A84 001:860 JLINK_WriteReg(R13 (SP), 0x20001000)  returns 0x00 (0000ms, 1200ms total)
T2A84 001:860 JLINK_WriteReg(R14, 0x20000001)  returns 0x00 (0001ms, 1201ms total)
T2A84 001:861 JLINK_WriteReg(R15 (PC), 0x200000E8)  returns 0x00 (0000ms, 1201ms total)
T2A84 001:861 JLINK_WriteReg(XPSR, 0x01000000)  returns 0x00 (0000ms, 1201ms total)
T2A84 001:861 JLINK_WriteReg(MSP, 0x20001000)  returns 0x00 (0001ms, 1202ms total)
T2A84 001:862 JLINK_WriteReg(PSP, 0x20001000)  returns 0x00 (0000ms, 1202ms total)
T2A84 001:862 JLINK_WriteReg(CFBP, 0x00000000)  returns 0x00 (0000ms, 1202ms total)
T2A84 001:862 JLINK_SetBPEx(Addr = 0x20000000, Type = 0xFFFFFFF2)  returns 0x0000000C (0001ms, 1203ms total)
T2A84 001:863 JLINK_Go() -- CPU_ReadMem(4 bytes @ 0xE0001000) (0006ms, 1209ms total)
T2A84 001:869 JLINK_IsHalted()  returns FALSE (0002ms, 1211ms total)
T2A84 001:873 JLINK_IsHalted() -- CPU_ReadMem(2 bytes @ 0x20000000)  returns TRUE (0007ms, 1216ms total)
T2A84 001:880 JLINK_ReadReg(R15 (PC))  returns 0x20000000 (0001ms, 1210ms total)
T2A84 001:881 JLINK_ClrBPEx(BPHandle = 0x0000000C)  returns 0x00 (0000ms, 1210ms total)
T2A84 001:881 JLINK_ReadReg(R0)  returns 0x00000000 (0000ms, 1210ms total)
T2A84 001:883 JLINK_WriteMem(0x200001A0, 0x0400 Bytes, ...) - Data: 01 F0 16 F8 13 4B 99 69 13 4B 98 69 01 4B 9A 69 ... -- CPU_WriteMem(1024 bytes @ 0x200001A0)  returns 0x400 (0008ms, 1218ms total)
T2A84 001:891 JLINK_WriteReg(R0, 0x00001400)  returns 0x00 (0000ms, 1218ms total)
T2A84 001:891 JLINK_WriteReg(R1, 0x00000400)  returns 0x00 (0001ms, 1219ms total)
T2A84 001:892 JLINK_WriteReg(R2, 0x200001A0)  returns 0x00 (0000ms, 1219ms total)
T2A84 001:892 JLINK_WriteReg(R3, 0x00000000)  returns 0x00 (0000ms, 1219ms total)
T2A84 001:892 JLINK_WriteReg(R4, 0x00000000)  returns 0x00 (0001ms, 1220ms total)
T2A84 001:893 JLINK_WriteReg(R5, 0x00000000)  returns 0x00 (0000ms, 1220ms total)
T2A84 001:893 JLINK_WriteReg(R6, 0x00000000)  returns 0x00 (0000ms, 1220ms total)
T2A84 001:893 JLINK_WriteReg(R7, 0x00000000)  returns 0x00 (0001ms, 1221ms total)
T2A84 001:894 JLINK_WriteReg(R8, 0x00000000)  returns 0x00 (0000ms, 1221ms total)
T2A84 001:895 JLINK_WriteReg(R9, 0x20000170)  returns 0x00 (0000ms, 1221ms total)
T2A84 001:895 JLINK_WriteReg(R10, 0x00000000)  returns 0x00 (0000ms, 1221ms total)
T2A84 001:895 JLINK_WriteReg(R11, 0x00000000)  returns 0x00 (0000ms, 1221ms total)
T2A84 001:895 JLINK_WriteReg(R12, 0x00000000)  returns 0x00 (0001ms, 1222ms total)
T2A84 001:896 JLINK_WriteReg(R13 (SP), 0x20001000)  returns 0x00 (0000ms, 1222ms total)
T2A84 001:896 JLINK_WriteReg(R14, 0x20000001)  returns 0x00 (0000ms, 1222ms total)
T2A84 001:896 JLINK_WriteReg(R15 (PC), 0x200000E8)  returns 0x00 (0001ms, 1223ms total)
T2A84 001:897 JLINK_WriteReg(XPSR, 0x01000000)  returns 0x00 (0001ms, 1224ms total)
T2A84 001:898 JLINK_WriteReg(MSP, 0x20001000)  returns 0x00 (0000ms, 1224ms total)
T2A84 001:898 JLINK_WriteReg(PSP, 0x20001000)  returns 0x00 (0000ms, 1224ms total)
T2A84 001:898 JLINK_WriteReg(CFBP, 0x00000000)  returns 0x00 (0001ms, 1225ms total)
T2A84 001:899 JLINK_SetBPEx(Addr = 0x20000000, Type = 0xFFFFFFF2)  returns 0x0000000D (0000ms, 1225ms total)
T2A84 001:899 JLINK_Go() -- CPU_ReadMem(4 bytes @ 0xE0001000) (0007ms, 1232ms total)
T2A84 001:906 JLINK_IsHalted()  returns FALSE (0001ms, 1233ms total)
T2A84 001:915 JLINK_IsHalted() -- CPU_ReadMem(2 bytes @ 0x20000000)  returns TRUE (0006ms, 1238ms total)
T2A84 001:921 JLINK_ReadReg(R15 (PC))  returns 0x20000000 (0001ms, 1233ms total)
T2A84 001:922 JLINK_ClrBPEx(BPHandle = 0x0000000D)  returns 0x00 (0000ms, 1233ms total)
T2A84 001:922 JLINK_ReadReg(R0)  returns 0x00000000 (0000ms, 1233ms total)
T2A84 001:924 JLINK_WriteMem(0x200001A0, 0x0400 Bytes, ...) - Data: 04 F0 F8 FB 00 F0 64 FA 1F 48 00 68 80 09 45 00 ... -- CPU_WriteMem(1024 bytes @ 0x200001A0)  returns 0x400 (0007ms, 1240ms total)
T2A84 001:932 JLINK_WriteReg(R0, 0x00001800)  returns 0x00 (0000ms, 1240ms total)
T2A84 001:932 JLINK_WriteReg(R1, 0x00000400)  returns 0x00 (0000ms, 1240ms total)
T2A84 001:932 JLINK_WriteReg(R2, 0x200001A0)  returns 0x00 (0001ms, 1241ms total)
T2A84 001:933 JLINK_WriteReg(R3, 0x00000000)  returns 0x00 (0000ms, 1241ms total)
T2A84 001:933 JLINK_WriteReg(R4, 0x00000000)  returns 0x00 (0000ms, 1241ms total)
T2A84 001:934 JLINK_WriteReg(R5, 0x00000000)  returns 0x00 (0000ms, 1242ms total)
T2A84 001:934 JLINK_WriteReg(R6, 0x00000000)  returns 0x00 (0000ms, 1242ms total)
T2A84 001:934 JLINK_WriteReg(R7, 0x00000000)  returns 0x00 (0001ms, 1243ms total)
T2A84 001:935 JLINK_WriteReg(R8, 0x00000000)  returns 0x00 (0000ms, 1243ms total)
T2A84 001:935 JLINK_WriteReg(R9, 0x20000170)  returns 0x00 (0000ms, 1243ms total)
T2A84 001:935 JLINK_WriteReg(R10, 0x00000000)  returns 0x00 (0001ms, 1244ms total)
T2A84 001:936 JLINK_WriteReg(R11, 0x00000000)  returns 0x00 (0000ms, 1244ms total)
T2A84 001:936 JLINK_WriteReg(R12, 0x00000000)  returns 0x00 (0000ms, 1244ms total)
T2A84 001:936 JLINK_WriteReg(R13 (SP), 0x20001000)  returns 0x00 (0000ms, 1244ms total)
T2A84 001:937 JLINK_WriteReg(R14, 0x20000001)  returns 0x00 (0000ms, 1245ms total)
T2A84 001:937 JLINK_WriteReg(R15 (PC), 0x200000E8)  returns 0x00 (0000ms, 1245ms total)
T2A84 001:937 JLINK_WriteReg(XPSR, 0x01000000)  returns 0x00 (0001ms, 1246ms total)
T2A84 001:938 JLINK_WriteReg(MSP, 0x20001000)  returns 0x00 (0000ms, 1246ms total)
T2A84 001:938 JLINK_WriteReg(PSP, 0x20001000)  returns 0x00 (0000ms, 1246ms total)
T2A84 001:938 JLINK_WriteReg(CFBP, 0x00000000)  returns 0x00 (0000ms, 1246ms total)
T2A84 001:939 JLINK_SetBPEx(Addr = 0x20000000, Type = 0xFFFFFFF2)  returns 0x0000000E (0000ms, 1247ms total)
T2A84 001:939 JLINK_Go() -- CPU_ReadMem(4 bytes @ 0xE0001000) (0006ms, 1253ms total)
T2A84 001:945 JLINK_IsHalted()  returns FALSE (0001ms, 1254ms total)
T2A84 001:964 JLINK_IsHalted() -- CPU_ReadMem(2 bytes @ 0x20000000)  returns TRUE (0006ms, 1259ms total)
T2A84 001:970 JLINK_ReadReg(R15 (PC))  returns 0x20000000 (0000ms, 1253ms total)
T2A84 001:970 JLINK_ClrBPEx(BPHandle = 0x0000000E)  returns 0x00 (0001ms, 1254ms total)
T2A84 001:971 JLINK_ReadReg(R0)  returns 0x00000000 (0000ms, 1254ms total)
T2A84 001:973 JLINK_WriteMem(0x200001A0, 0x0400 Bytes, ...) - Data: 09 21 00 20 00 F0 5A F8 09 21 03 20 00 F0 56 F8 ... -- CPU_WriteMem(1024 bytes @ 0x200001A0)  returns 0x400 (0007ms, 1261ms total)
T2A84 001:980 JLINK_WriteReg(R0, 0x00001C00)  returns 0x00 (0000ms, 1261ms total)
T2A84 001:980 JLINK_WriteReg(R1, 0x00000400)  returns 0x00 (0000ms, 1261ms total)
T2A84 001:980 JLINK_WriteReg(R2, 0x200001A0)  returns 0x00 (0001ms, 1262ms total)
T2A84 001:981 JLINK_WriteReg(R3, 0x00000000)  returns 0x00 (0000ms, 1262ms total)
T2A84 001:981 JLINK_WriteReg(R4, 0x00000000)  returns 0x00 (0000ms, 1262ms total)
T2A84 001:981 JLINK_WriteReg(R5, 0x00000000)  returns 0x00 (0001ms, 1263ms total)
T2A84 001:982 JLINK_WriteReg(R6, 0x00000000)  returns 0x00 (0000ms, 1263ms total)
T2A84 001:982 JLINK_WriteReg(R7, 0x00000000)  returns 0x00 (0002ms, 1265ms total)
T2A84 001:984 JLINK_WriteReg(R8, 0x00000000)  returns 0x00 (0001ms, 1266ms total)
T2A84 001:985 JLINK_WriteReg(R9, 0x20000170)  returns 0x00 (0000ms, 1266ms total)
T2A84 001:985 JLINK_WriteReg(R10, 0x00000000)  returns 0x00 (0000ms, 1266ms total)
T2A84 001:985 JLINK_WriteReg(R11, 0x00000000)  returns 0x00 (0001ms, 1267ms total)
T2A84 001:986 JLINK_WriteReg(R12, 0x00000000)  returns 0x00 (0000ms, 1267ms total)
T2A84 001:986 JLINK_WriteReg(R13 (SP), 0x20001000)  returns 0x00 (0000ms, 1267ms total)
T2A84 001:986 JLINK_WriteReg(R14, 0x20000001)  returns 0x00 (0000ms, 1267ms total)
T2A84 001:986 JLINK_WriteReg(R15 (PC), 0x200000E8)  returns 0x00 (0001ms, 1268ms total)
T2A84 001:987 JLINK_WriteReg(XPSR, 0x01000000)  returns 0x00 (0000ms, 1268ms total)
T2A84 001:987 JLINK_WriteReg(MSP, 0x20001000)  returns 0x00 (0000ms, 1268ms total)
T2A84 001:987 JLINK_WriteReg(PSP, 0x20001000)  returns 0x00 (0000ms, 1268ms total)
T2A84 001:988 JLINK_WriteReg(CFBP, 0x00000000)  returns 0x00 (0000ms, 1268ms total)
T2A84 001:988 JLINK_SetBPEx(Addr = 0x20000000, Type = 0xFFFFFFF2)  returns 0x0000000F (0000ms, 1268ms total)
T2A84 001:988 JLINK_Go() -- CPU_ReadMem(4 bytes @ 0xE0001000) (0006ms, 1274ms total)
T2A84 001:994 JLINK_IsHalted()  returns FALSE (0001ms, 1275ms total)
T2A84 002:001 JLINK_IsHalted() -- CPU_ReadMem(2 bytes @ 0x20000000)  returns TRUE (0006ms, 1280ms total)
T2A84 002:007 JLINK_ReadReg(R15 (PC))  returns 0x20000000 (0000ms, 1280ms total)
T2A84 002:007 JLINK_ClrBPEx(BPHandle = 0x0000000F)  returns 0x00 (0000ms, 1280ms total)
T2A84 002:008 JLINK_ReadReg(R0)  returns 0x00000000 (0000ms, 1281ms total)
T2A84 002:009 JLINK_WriteMem(0x200001A0, 0x0400 Bytes, ...) - Data: E0 71 20 72 60 72 A0 72 E0 72 10 BD 2E 2E 5C 2E ... -- CPU_WriteMem(1024 bytes @ 0x200001A0)  returns 0x400 (0007ms, 1288ms total)
T2A84 002:016 JLINK_WriteReg(R0, 0x00002000)  returns 0x00 (0000ms, 1288ms total)
T2A84 002:016 JLINK_WriteReg(R1, 0x00000400)  returns 0x00 (0001ms, 1289ms total)
T2A84 002:017 JLINK_WriteReg(R2, 0x200001A0)  returns 0x00 (0001ms, 1290ms total)
T2A84 002:018 JLINK_WriteReg(R3, 0x00000000)  returns 0x00 (0000ms, 1290ms total)
T2A84 002:018 JLINK_WriteReg(R4, 0x00000000)  returns 0x00 (0000ms, 1290ms total)
T2A84 002:019 JLINK_WriteReg(R5, 0x00000000)  returns 0x00 (0000ms, 1291ms total)
T2A84 002:019 JLINK_WriteReg(R6, 0x00000000)  returns 0x00 (0000ms, 1291ms total)
T2A84 002:019 JLINK_WriteReg(R7, 0x00000000)  returns 0x00 (0000ms, 1291ms total)
T2A84 002:019 JLINK_WriteReg(R8, 0x00000000)  returns 0x00 (0001ms, 1292ms total)
T2A84 002:020 JLINK_WriteReg(R9, 0x20000170)  returns 0x00 (0000ms, 1292ms total)
T2A84 002:020 JLINK_WriteReg(R10, 0x00000000)  returns 0x00 (0000ms, 1292ms total)
T2A84 002:020 JLINK_WriteReg(R11, 0x00000000)  returns 0x00 (0000ms, 1292ms total)
T2A84 002:021 JLINK_WriteReg(R12, 0x00000000)  returns 0x00 (0000ms, 1293ms total)
T2A84 002:021 JLINK_WriteReg(R13 (SP), 0x20001000)  returns 0x00 (0000ms, 1293ms total)
T2A84 002:021 JLINK_WriteReg(R14, 0x20000001)  returns 0x00 (0000ms, 1293ms total)
T2A84 002:021 JLINK_WriteReg(R15 (PC), 0x200000E8)  returns 0x00 (0001ms, 1294ms total)
T2A84 002:022 JLINK_WriteReg(XPSR, 0x01000000)  returns 0x00 (0000ms, 1294ms total)
T2A84 002:022 JLINK_WriteReg(MSP, 0x20001000)  returns 0x00 (0000ms, 1294ms total)
T2A84 002:022 JLINK_WriteReg(PSP, 0x20001000)  returns 0x00 (0001ms, 1295ms total)
T2A84 002:023 JLINK_WriteReg(CFBP, 0x00000000)  returns 0x00 (0000ms, 1295ms total)
T2A84 002:023 JLINK_SetBPEx(Addr = 0x20000000, Type = 0xFFFFFFF2)  returns 0x00000010 (0000ms, 1295ms total)
T2A84 002:023 JLINK_Go() -- CPU_ReadMem(4 bytes @ 0xE0001000) (0006ms, 1301ms total)
T2A84 002:029 JLINK_IsHalted()  returns FALSE (0001ms, 1302ms total)
T2A84 002:031 JLINK_IsHalted()  returns FALSE (0001ms, 1302ms total)
T2A84 002:033 JLINK_IsHalted() -- CPU_ReadMem(2 bytes @ 0x20000000)  returns TRUE (0006ms, 1307ms total)
T2A84 002:039 JLINK_ReadReg(R15 (PC))  returns 0x20000000 (0000ms, 1301ms total)
T2A84 002:039 JLINK_ClrBPEx(BPHandle = 0x00000010)  returns 0x00 (0000ms, 1301ms total)
T2A84 002:039 JLINK_ReadReg(R0)  returns 0x00000000 (0001ms, 1302ms total)
